
**** 11/30/22 11:31:25 ******* PSpice 17.4.0 (Nov 2018) ******* ID# 0 ********

 *****CSE4030Lab14_pt2*****


 ****     CIRCUIT DESCRIPTION


******************************************************************************



Vs 1 0 PULSE (-10 10 5m 1n 1n 5m 10m)
R1 1 2 0.1
C1 2 3 28.1m
C2 2 4 10.1m
C3 2 5 5.16m
L1 3 0 10u
L2 4 0 10u
L3 5 0 10u

.TRAN 1m 100m
.PLOT TRAN V(2)
.PROBE
.END

**** 11/30/22 11:31:25 ******* PSpice 17.4.0 (Nov 2018) ******* ID# 0 ********

 *****CSE4030Lab14_pt2*****


 ****     INITIAL TRANSIENT SOLUTION       TEMPERATURE =   27.000 DEG C


******************************************************************************



 NODE   VOLTAGE     NODE   VOLTAGE     NODE   VOLTAGE     NODE   VOLTAGE


(    1)  -10.0000  (    2)  -10.0000  (    3)    0.0000  (    4)    0.0000      

(    5)    0.0000  




    VOLTAGE SOURCE CURRENTS
    NAME         CURRENT

    Vs           0.000E+00

    TOTAL POWER DISSIPATION   0.00E+00  WATTS


**** 11/30/22 11:31:25 ******* PSpice 17.4.0 (Nov 2018) ******* ID# 0 ********

 *****CSE4030Lab14_pt2*****


 ****     TRANSIENT ANALYSIS               TEMPERATURE =   27.000 DEG C


******************************************************************************



  TIME        V(2)        
(*)----------   -2.0000E+01  -1.0000E+01   0.0000E+00   1.0000E+01   2.0000E+01
                       _ _ _ _ _ _ _ _ _ _ _ _ _ _ _ _ _ _ _ _ _ _ _ _ _ _ _
  0.000E+00 -1.000E+01 .            *            .            .            .
  1.000E-03 -1.000E+01 .            *            .            .            .
  2.000E-03 -1.000E+01 .            *            .            .            .
  3.000E-03 -1.000E+01 .            *            .            .            .
  4.000E-03 -1.000E+01 .            *            .            .            .
  5.000E-03 -8.000E+00 .            .  *         .            .            .
  6.000E-03 -6.016E+00 .            .    *       .            .            .
  7.000E-03 -3.146E+00 .            .        *   .            .            .
  8.000E-03  2.320E-02 .            .            *            .            .
  9.000E-03  2.089E+00 .            .            .  *         .            .
  1.000E-02  3.174E+00 .            .            .   *        .            .
  1.100E-02  1.478E+00 .            .            . *          .            .
  1.200E-02 -1.283E+00 .            .          * .            .            .
  1.300E-02 -3.077E+00 .            .        *   .            .            .
  1.400E-02 -4.332E+00 .            .      *     .            .            .
  1.500E-02 -3.632E+00 .            .       *    .            .            .
  1.600E-02 -2.558E+00 .            .         *  .            .            .
  1.700E-02 -2.937E-01 .            .            *            .            .
  1.800E-02  2.108E+00 .            .            .  *         .            .
  1.900E-02  3.806E+00 .            .            .    *       .            .
  2.000E-02  4.713E+00 .            .            .     *      .            .
  2.100E-02  2.329E+00 .            .            .  *         .            .
  2.200E-02 -1.852E-01 .            .            *            .            .
  2.300E-02 -2.517E+00 .            .         *  .            .            .
  2.400E-02 -3.804E+00 .            .       *    .            .            .
  2.500E-02 -5.115E+00 .            .     *      .            .            .
  2.600E-02 -2.369E+00 .            .         *  .            .            .
  2.700E-02  1.163E-01 .            .            *            .            .
  2.800E-02  2.260E+00 .            .            .  *         .            .
  2.900E-02  3.913E+00 .            .            .    *       .            .
  3.000E-02  4.966E+00 .            .            .     *      .            .
  3.100E-02  2.292E+00 .            .            .  *         .            .
  3.200E-02 -2.808E-03 .            .            *            .            .
  3.300E-02 -2.461E+00 .            .         *  .            .            .
  3.400E-02 -3.818E+00 .            .       *    .            .            .
  3.500E-02 -4.942E+00 .            .      *     .            .            .
  3.600E-02 -2.458E+00 .            .         *  .            .            .
  3.700E-02  1.833E-01 .            .            *            .            .
  3.800E-02  2.296E+00 .            .            .  *         .            .
  3.900E-02  3.861E+00 .            .            .    *       .            .
  4.000E-02  5.048E+00 .            .            .      *     .            .
  4.100E-02  2.261E+00 .            .            .  *         .            .
  4.200E-02 -1.255E-02 .            .            *            .            .
  4.300E-02 -2.398E+00 .            .         *  .            .            .
  4.400E-02 -3.894E+00 .            .       *    .            .            .
  4.500E-02 -4.896E+00 .            .      *     .            .            .
  4.600E-02 -2.447E+00 .            .         *  .            .            .
  4.700E-02  1.204E-01 .            .            *            .            .
  4.800E-02  2.370E+00 .            .            .  *         .            .
  4.900E-02  3.827E+00 .            .            .    *       .            .
  5.000E-02  5.021E+00 .            .            .      *     .            .
  5.100E-02  2.345E+00 .            .            .  *         .            .
  5.200E-02 -1.079E-01 .            .            *            .            .
  5.300E-02 -2.348E+00 .            .         *  .            .            .
  5.400E-02 -3.879E+00 .            .       *    .            .            .
  5.500E-02  1.499E+01 .            .            .            .     *      .
  5.600E-02 -2.312E+00 .            .         *  .            .            .
  5.700E-02  3.774E-02 .            .            *            .            .
  5.800E-02  2.415E+00 .            .            .  *         .            .
  5.900E-02  3.855E+00 .            .            .    *       .            .
  6.000E-02  4.953E+00 .            .            .     *      .            .
  6.100E-02  2.433E+00 .            .            .  *         .            .
  6.200E-02 -1.552E-01 .            .            *            .            .
  6.300E-02 -2.327E+00 .            .         *  .            .            .
  6.400E-02 -3.871E+00 .            .       *    .            .            .
  6.500E-02  1.499E+01 .            .            .            .     *      .
  6.600E-02 -2.312E+00 .            .         *  .            .            .
  6.700E-02  4.615E-02 .            .            *            .            .
  6.800E-02  2.394E+00 .            .            .  *         .            .
  6.900E-02  3.847E+00 .            .            .    *       .            .
  7.000E-02  4.995E+00 .            .            .     *      .            .
  7.100E-02  2.360E+00 .            .            .  *         .            .
  7.200E-02 -7.032E-02 .            .            *            .            .
  7.300E-02 -2.371E+00 .            .         *  .            .            .
  7.400E-02 -3.864E+00 .            .       *    .            .            .
  7.500E-02 -4.981E+00 .            .      *     .            .            .
  7.600E-02 -2.375E+00 .            .         *  .            .            .
  7.700E-02  8.574E-02 .            .            *            .            .
  7.800E-02  2.340E+00 .            .            .  *         .            .
  7.900E-02  3.908E+00 .            .            .    *       .            .
  8.000E-02 -9.037E+00 .            .*           .            .            .
  8.100E-02  2.370E+00 .            .            .  *         .            .
  8.200E-02 -7.565E-02 .            .            *            .            .
  8.300E-02 -2.384E+00 .            .         *  .            .            .
  8.400E-02 -3.864E+00 .            .       *    .            .            .
  8.500E-02 -4.973E+00 .            .      *     .            .            .
  8.600E-02 -2.385E+00 .            .         *  .            .            .
  8.700E-02  1.061E-01 .            .            *            .            .
  8.800E-02  2.350E+00 .            .            .  *         .            .
  8.900E-02  3.881E+00 .            .            .    *       .            .
  9.000E-02  4.988E+00 .            .            .     *      .            .
  9.100E-02  2.351E+00 .            .            .  *         .            .
  9.200E-02 -6.402E-02 .            .            *            .            .
  9.300E-02 -2.374E+00 .            .         *  .            .            .
  9.400E-02 -3.877E+00 .            .       *    .            .            .
  9.500E-02  1.503E+01 .            .            .            .      *     .
  9.600E-02 -2.386E+00 .            .         *  .            .            .
  9.700E-02  9.289E-02 .            .            *            .            .
  9.800E-02  2.361E+00 .            .            .  *         .            .
  9.900E-02  3.855E+00 .            .            .    *       .            .
  1.000E-01  5.015E+00 .            .            .      *     .            .
                       - - - - - - - - - - - - - - - - - - - - - - - - - - - 




          JOB CONCLUDED

**** 11/30/22 11:31:25 ******* PSpice 17.4.0 (Nov 2018) ******* ID# 0 ********

 *****CSE4030Lab14_pt2*****


 ****     JOB STATISTICS SUMMARY


******************************************************************************



  Total job time (using Solver 1)   =         .03
