
**** 10/10/22 11:48:46 ******* PSpice 17.4.0 (Nov 2018) ******* ID# 0 ********

 ****CSE4030Lab7pt2*****


 ****     CIRCUIT DESCRIPTION


******************************************************************************




Vs 0 1 DC 6V
R1 1 2  2k
R2 2 3  2k
R3 1 3 12k
R4 3 0 6k 



.Tran 1ms 7ms
.PLOT Tran V(1)
.PROBE
.END

**** 10/10/22 11:48:46 ******* PSpice 17.4.0 (Nov 2018) ******* ID# 0 ********

 ****CSE4030Lab7pt2*****


 ****     INITIAL TRANSIENT SOLUTION       TEMPERATURE =   27.000 DEG C


******************************************************************************



 NODE   VOLTAGE     NODE   VOLTAGE     NODE   VOLTAGE     NODE   VOLTAGE


(    1)   -6.0000  (    2)   -5.0000  (    3)   -4.0000  




    VOLTAGE SOURCE CURRENTS
    NAME         CURRENT

    Vs          -6.667E-04

    TOTAL POWER DISSIPATION   4.00E-03  WATTS


**** 10/10/22 11:48:46 ******* PSpice 17.4.0 (Nov 2018) ******* ID# 0 ********

 ****CSE4030Lab7pt2*****


 ****     TRANSIENT ANALYSIS               TEMPERATURE =   27.000 DEG C


******************************************************************************



  TIME        V(1)        
(*)----------   -1.0000E+01  -8.0000E+00  -6.0000E+00  -4.0000E+00  -2.0000E+00
                       _ _ _ _ _ _ _ _ _ _ _ _ _ _ _ _ _ _ _ _ _ _ _ _ _ _ _
  0.000E+00 -6.000E+00 .            .            *            .            .
  1.000E-03 -6.000E+00 .            .            *            .            .
  2.000E-03 -6.000E+00 .            .            *            .            .
  3.000E-03 -6.000E+00 .            .            *            .            .
  4.000E-03 -6.000E+00 .            .            *            .            .
  5.000E-03 -6.000E+00 .            .            *            .            .
  6.000E-03 -6.000E+00 .            .            *            .            .
  7.000E-03 -6.000E+00 .            .            *            .            .
                       - - - - - - - - - - - - - - - - - - - - - - - - - - - 




          JOB CONCLUDED

**** 10/10/22 11:48:46 ******* PSpice 17.4.0 (Nov 2018) ******* ID# 0 ********

 ****CSE4030Lab7pt2*****


 ****     JOB STATISTICS SUMMARY


******************************************************************************



  License check-out time            =         .75
  Total job time (using Solver 1)   =         .02
