
**** 11/02/22 11:25:46 ******* PSpice 17.4.0 (Nov 2018) ******* ID# 0 ********

 ****CSE4030Lab10_pt2****


 ****     CIRCUIT DESCRIPTION


******************************************************************************




Is 1 0 SIN(0 4 60 0 0 90)
R1 1 0 2
R2  2 0 4
RL  3 0 1.44
L 1 2 0.00265
C 2 3 0.0061687

.Tran 1ms 100ms
.PLOT Tran V(1)
.PROBE
.END

**** 11/02/22 11:25:46 ******* PSpice 17.4.0 (Nov 2018) ******* ID# 0 ********

 ****CSE4030Lab10_pt2****


 ****     INITIAL TRANSIENT SOLUTION       TEMPERATURE =   27.000 DEG C


******************************************************************************



 NODE   VOLTAGE     NODE   VOLTAGE     NODE   VOLTAGE     NODE   VOLTAGE


(    1)   -5.3333  (    2)   -5.3333  (    3)    0.0000  




    VOLTAGE SOURCE CURRENTS
    NAME         CURRENT


    TOTAL POWER DISSIPATION   0.00E+00  WATTS


**** 11/02/22 11:25:46 ******* PSpice 17.4.0 (Nov 2018) ******* ID# 0 ********

 ****CSE4030Lab10_pt2****


 ****     TRANSIENT ANALYSIS               TEMPERATURE =   27.000 DEG C


******************************************************************************



  TIME        V(1)        
(*)----------   -1.0000E+01  -5.0000E+00   0.0000E+00   5.0000E+00   1.0000E+01
                       _ _ _ _ _ _ _ _ _ _ _ _ _ _ _ _ _ _ _ _ _ _ _ _ _ _ _
  0.000E+00 -5.333E+00 .           *.            .            .            .
  1.000E-03 -4.854E+00 .            *            .            .            .
  2.000E-03 -3.782E+00 .            .  *         .            .            .
  3.000E-03 -2.515E+00 .            .     *      .            .            .
  4.000E-03 -1.144E+00 .            .         *  .            .            .
  5.000E-03  1.232E-02 .            .            *            .            .
  6.000E-03  8.952E-01 .            .            . *          .            .
  7.000E-03  1.381E+00 .            .            .   *        .            .
  8.000E-03  1.360E+00 .            .            .   *        .            .
  9.000E-03  9.732E-01 .            .            .  *         .            .
  1.000E-02  1.201E-01 .            .            *            .            .
  1.100E-02 -8.725E-01 .            .          * .            .            .
  1.200E-02 -2.043E+00 .            .       *    .            .            .
  1.300E-02 -3.053E+00 .            .    *       .            .            .
  1.400E-02 -3.859E+00 .            .  *         .            .            .
  1.500E-02 -4.295E+00 .            . *          .            .            .
  1.600E-02 -4.258E+00 .            . *          .            .            .
  1.700E-02 -3.843E+00 .            .  *         .            .            .
  1.800E-02 -2.947E+00 .            .    *       .            .            .
  1.900E-02 -1.872E+00 .            .       *    .            .            .
  2.000E-02 -5.690E-01 .            .           *.            .            .
  2.100E-02  6.149E-01 .            .            . *          .            .
  2.200E-02  1.647E+00 .            .            .   *        .            .
  2.300E-02  2.326E+00 .            .            .     *      .            .
  2.400E-02  2.553E+00 .            .            .      *     .            .
  2.500E-02  2.383E+00 .            .            .     *      .            .
  2.600E-02  1.706E+00 .            .            .   *        .            .
  2.700E-02  8.005E-01 .            .            . *          .            .
  2.800E-02 -3.946E-01 .            .           *.            .            .
  2.900E-02 -1.525E+00 .            .        *   .            .            .
  3.000E-02 -2.572E+00 .            .     *      .            .            .
  3.100E-02 -3.300E+00 .            .   *        .            .            .
  3.200E-02 -3.623E+00 .            .   *        .            .            .
  3.300E-02 -3.514E+00 .            .   *        .            .            .
  3.400E-02 -2.930E+00 .            .    *       .            .            .
  3.500E-02 -2.053E+00 .            .       *    .            .            .
  3.600E-02 -8.541E-01 .            .          * .            .            .
  3.700E-02  3.323E-01 .            .            .*           .            .
  3.800E-02  1.505E+00 .            .            .   *        .            .
  3.900E-02  2.368E+00 .            .            .     *      .            .
  4.000E-02  2.889E+00 .            .            .       *    .            .
  4.100E-02  2.970E+00 .            .            .       *    .            .
  4.200E-02  2.565E+00 .            .            .      *     .            .
  4.300E-02  1.838E+00 .            .            .    *       .            .
  4.400E-02  7.540E-01 .            .            . *          .            .
  4.500E-02 -4.415E-01 .            .           *.            .            .
  4.600E-02 -1.677E+00 .            .        *   .            .            .
  4.700E-02 -2.520E+00 .            .     *      .            .            .
  4.800E-02 -3.358E+00 .            .   *        .            .            .
  4.900E-02 -3.353E+00 .            .   *        .            .            .
  5.000E-02 -3.267E+00 .            .    *       .            .            .
  5.100E-02 -2.415E+00 .            .      *     .            .            .
  5.200E-02 -1.530E+00 .            .        *   .            .            .
  5.300E-02 -2.702E-01 .            .           *.            .            .
  5.400E-02  9.666E-01 .            .            .  *         .            .
  5.500E-02  1.953E+00 .            .            .    *       .            .
  5.600E-02  2.873E+00 .            .            .      *     .            .
  5.700E-02  3.070E+00 .            .            .       *    .            .
  5.800E-02  3.130E+00 .            .            .       *    .            .
  5.900E-02  2.443E+00 .            .            .     *      .            .
  6.000E-02  1.674E+00 .            .            .   *        .            .
  6.100E-02  4.566E-01 .            .            .*           .            .
  6.200E-02 -7.401E-01 .            .          * .            .            .
  6.300E-02 -1.823E+00 .            .       *    .            .            .
  6.400E-02 -2.794E+00 .            .     *      .            .            .
  6.500E-02 -3.154E+00 .            .    *       .            .            .
  6.600E-02 -3.370E+00 .            .   *        .            .            .
  6.700E-02 -2.809E+00 .            .     *      .            .            .
  6.800E-02 -2.151E+00 .            .      *     .            .            .
  6.900E-02 -9.716E-01 .            .         *  .            .            .
  7.000E-02  2.049E-01 .            .            .*           .            .
  7.100E-02  1.365E+00 .            .            .   *        .            .
  7.200E-02  2.424E+00 .            .            .     *      .            .
  7.300E-02  2.938E+00 .            .            .       *    .            .
  7.400E-02  3.307E+00 .            .            .        *   .            .
  7.500E-02  2.897E+00 .            .            .       *    .            .
  7.600E-02  2.377E+00 .            .            .     *      .            .
  7.700E-02  1.267E+00 .            .            .  *         .            .
  7.800E-02  1.412E-01 .            .            *            .            .
  7.900E-02 -1.067E+00 .            .         *  .            .            .
  8.000E-02 -2.187E+00 .            .      *     .            .            .
  8.100E-02 -2.837E+00 .            .     *      .            .            .
  8.200E-02 -3.344E+00 .            .   *        .            .            .
  8.300E-02 -3.082E+00 .            .    *       .            .            .
  8.400E-02 -2.700E+00 .            .     *      .            .            .
  8.500E-02 -1.669E+00 .            .        *   .            .            .
  8.600E-02 -6.040E-01 .            .          * .            .            .
  8.700E-02  6.391E-01 .            .            . *          .            .
  8.800E-02  1.810E+00 .            .            .    *       .            .
  8.900E-02  2.591E+00 .            .            .      *     .            .
  9.000E-02  3.235E+00 .            .            .       *    .            .
  9.100E-02  3.131E+00 .            .            .       *    .            .
  9.200E-02  2.898E+00 .            .            .       *    .            .
  9.300E-02  1.966E+00 .            .            .    *       .            .
  9.400E-02  9.837E-01 .            .            .  *         .            .
  9.500E-02 -2.709E-01 .            .           *.            .            .
  9.600E-02 -1.470E+00 .            .        *   .            .            .
  9.700E-02 -2.367E+00 .            .      *     .            .            .
  9.800E-02 -3.132E+00 .            .    *       .            .            .
  9.900E-02 -3.187E+00 .            .    *       .            .            .
  1.000E-01 -3.153E+00 .            .    *       .            .            .
                       - - - - - - - - - - - - - - - - - - - - - - - - - - - 




          JOB CONCLUDED

**** 11/02/22 11:25:46 ******* PSpice 17.4.0 (Nov 2018) ******* ID# 0 ********

 ****CSE4030Lab10_pt2****


 ****     JOB STATISTICS SUMMARY


******************************************************************************



  License check-out time            =         .86
  Total job time (using Solver 1)   =         .02
