
**** 10/05/22 10:52:56 ******* PSpice 17.4.0 (Nov 2018) ******* ID# 0 ********

 ++++CSE4030Lab6pt++++


 ****     CIRCUIT DESCRIPTION


******************************************************************************



V1 4 0 DC 12v 
I1 0 1 8mA
I2 1 3  2mA
R1 1 0 3k
C 1 2 10nF
L 2 3 1H
R2 2 4 6k
R3 3 0 2k 

.Tran 1ms 5ms 
.PLOT Tran V(1) V(2)
.PROBE 
.END

**** 10/05/22 10:52:56 ******* PSpice 17.4.0 (Nov 2018) ******* ID# 0 ********

 ++++CSE4030Lab6pt++++


 ****     INITIAL TRANSIENT SOLUTION       TEMPERATURE =   27.000 DEG C


******************************************************************************



 NODE   VOLTAGE     NODE   VOLTAGE     NODE   VOLTAGE     NODE   VOLTAGE


(    1)   18.0000  (    2)    6.0000  (    3)    6.0000  (    4)   12.0000  




    VOLTAGE SOURCE CURRENTS
    NAME         CURRENT

    V1          -1.000E-03

    TOTAL POWER DISSIPATION   1.20E-02  WATTS


**** 10/05/22 10:52:56 ******* PSpice 17.4.0 (Nov 2018) ******* ID# 0 ********

 ++++CSE4030Lab6pt++++


 ****     TRANSIENT ANALYSIS               TEMPERATURE =   27.000 DEG C


******************************************************************************



 LEGEND:

*: V(1)
+: V(2)

  TIME        V(1)        
(*)----------    0.0000E+00   1.0000E+01   2.0000E+01   3.0000E+01   4.0000E+01
(+)----------    2.0000E+00   4.0000E+00   6.0000E+00   8.0000E+00   1.0000E+01
                       _ _ _ _ _ _ _ _ _ _ _ _ _ _ _ _ _ _ _ _ _ _ _ _ _ _ _
  0.000E+00  1.800E+01 .            .         *  +            .            .
  1.000E-03  1.800E+01 .            .         *  +            .            .
  2.000E-03  1.800E+01 .            .         *  +            .            .
  3.000E-03  1.800E+01 .            .         *  +            .            .
  4.000E-03  1.800E+01 .            .         *  +            .            .
  5.000E-03  1.800E+01 .            .         *  +            .            .
                       - - - - - - - - - - - - - - - - - - - - - - - - - - - 




          JOB CONCLUDED

**** 10/05/22 10:52:56 ******* PSpice 17.4.0 (Nov 2018) ******* ID# 0 ********

 ++++CSE4030Lab6pt++++


 ****     JOB STATISTICS SUMMARY


******************************************************************************



  Total job time (using Solver 1)   =         .02
