
**** 09/21/22 11:47:51 ******* PSpice 17.4.0 (Nov 2018) ******* ID# 0 ********

 +++++CSE4030Lab4+++++


 ****     CIRCUIT DESCRIPTION


******************************************************************************



V1 1 0 PWL(0 1V 5ms 2V)
V2 2 0 DC 2V 
R1 2 3  10K
R2 3 5 10K 
R3 6 0 10K
R4 8 6  30K
Ri 1 2 1MEG
Ro 4 5 10 
Ri2 5 6 1MEG
Ro2  7 8 10
E1 4 0 1 2 1MEG
E2 7 0 5 6 1MEG


.Tran 1ms 5ms
.PLOT Tran V(1) V(2)
.PROBE 
.END 

**** 09/21/22 11:47:51 ******* PSpice 17.4.0 (Nov 2018) ******* ID# 0 ********

 +++++CSE4030Lab4+++++


 ****     INITIAL TRANSIENT SOLUTION       TEMPERATURE =   27.000 DEG C


******************************************************************************



 NODE   VOLTAGE     NODE   VOLTAGE     NODE   VOLTAGE     NODE   VOLTAGE


(    1)    1.0000  (    2)    2.0000  (    3)-499.7E+03  (    4)-1.000E+06      

(    5)-999.5E+03  (    6)-999.5E+03  (    7)-3.999E+06  (    8)-3.998E+06  




    VOLTAGE SOURCE CURRENTS
    NAME         CURRENT

    V1           1.000E-06
    V2          -4.998E+01

    TOTAL POWER DISSIPATION   1.00E+02  WATTS


**** 09/21/22 11:47:51 ******* PSpice 17.4.0 (Nov 2018) ******* ID# 0 ********

 +++++CSE4030Lab4+++++


 ****     TRANSIENT ANALYSIS               TEMPERATURE =   27.000 DEG C


******************************************************************************



 LEGEND:

*: V(1)
+: V(2)

  TIME        V(1)        
(*)----------    5.0000E-01   1.0000E+00   1.5000E+00   2.0000E+00   2.5000E+00
(+)----------    0.0000E+00   1.0000E+00   2.0000E+00   3.0000E+00   4.0000E+00
                       _ _ _ _ _ _ _ _ _ _ _ _ _ _ _ _ _ _ _ _ _ _ _ _ _ _ _
  0.000E+00  1.000E+00 .            *            +            .            .
  1.000E-03  1.200E+00 .            .    *       +            .            .
  2.000E-03  1.400E+00 .            .         *  +            .            .
  3.000E-03  1.600E+00 .            .            +  *         .            .
  4.000E-03  1.800E+00 .            .            +       *    .            .
  5.000E-03  2.000E+00 .            .            +            *            .
                       - - - - - - - - - - - - - - - - - - - - - - - - - - - 




          JOB CONCLUDED

**** 09/21/22 11:47:51 ******* PSpice 17.4.0 (Nov 2018) ******* ID# 0 ********

 +++++CSE4030Lab4+++++


 ****     JOB STATISTICS SUMMARY


******************************************************************************



  License check-out time            =         .92
  Total job time (using Solver 1)   =         .02

**** 09/21/22 11:47:51 ******* PSpice 17.4.0 (Nov 2018) ******* ID# 0 ********

  


 ****     CIRCUIT DESCRIPTION


******************************************************************************




