
**** 01/25/23 16:43:41 ******* PSpice 17.4.0 (Nov 2018) ******* ID# 0 ********

 ******************Lab1_1**************************


 ****     CIRCUIT DESCRIPTION


******************************************************************************



Vs 1 0 9
R1 1 2 6
R2 2 0 3

.Tran 1m 5ms 
.PLOT Tran V(1)
.PROBE 
.END

**** 01/25/23 16:43:41 ******* PSpice 17.4.0 (Nov 2018) ******* ID# 0 ********

 ******************Lab1_1**************************


 ****     INITIAL TRANSIENT SOLUTION       TEMPERATURE =   27.000 DEG C


******************************************************************************



 NODE   VOLTAGE     NODE   VOLTAGE     NODE   VOLTAGE     NODE   VOLTAGE


(    1)    9.0000  (    2)    3.0000  




    VOLTAGE SOURCE CURRENTS
    NAME         CURRENT

    Vs          -1.000E+00

    TOTAL POWER DISSIPATION   9.00E+00  WATTS


**** 01/25/23 16:43:41 ******* PSpice 17.4.0 (Nov 2018) ******* ID# 0 ********

 ******************Lab1_1**************************


 ****     TRANSIENT ANALYSIS               TEMPERATURE =   27.000 DEG C


******************************************************************************



  TIME        V(1)        
(*)----------    0.0000E+00   5.0000E+00   1.0000E+01   1.5000E+01   2.0000E+01
                       _ _ _ _ _ _ _ _ _ _ _ _ _ _ _ _ _ _ _ _ _ _ _ _ _ _ _
  0.000E+00  9.000E+00 .            .         *  .            .            .
  1.000E-03  9.000E+00 .            .         *  .            .            .
  2.000E-03  9.000E+00 .            .         *  .            .            .
  3.000E-03  9.000E+00 .            .         *  .            .            .
  4.000E-03  9.000E+00 .            .         *  .            .            .
  5.000E-03  9.000E+00 .            .         *  .            .            .
                       - - - - - - - - - - - - - - - - - - - - - - - - - - - 




          JOB CONCLUDED

**** 01/25/23 16:43:41 ******* PSpice 17.4.0 (Nov 2018) ******* ID# 0 ********

 ******************Lab1_1**************************


 ****     JOB STATISTICS SUMMARY


******************************************************************************



  License check-out time            =         .59
  Total job time (using Solver 1)   =         .02

**** 01/25/23 16:43:41 ******* PSpice 17.4.0 (Nov 2018) ******* ID# 0 ********

  


 ****     CIRCUIT DESCRIPTION


******************************************************************************



