
**** 01/30/23 18:24:21 ******* PSpice 17.4.0 (Nov 2018) ******* ID# 0 ********

 *********** LAB_2**************I


 ****     CIRCUIT DESCRIPTION


******************************************************************************



Is 0 1 4m
R0  1  2 12kohm
R1  2 0  12Kohms
R2  2 3 12Kohms
R3  1 3 12kohms
R4  3 0 12kohms


.TRAN 1m 5m
.PLOT  TRAN V(Is)
.PROBE
.END

**** 01/30/23 18:24:21 ******* PSpice 17.4.0 (Nov 2018) ******* ID# 0 ********

 *********** LAB_2**************I


 ****     INITIAL TRANSIENT SOLUTION       TEMPERATURE =   27.000 DEG C


******************************************************************************



 NODE   VOLTAGE     NODE   VOLTAGE     NODE   VOLTAGE     NODE   VOLTAGE


(    1)   48.0000  (    2)   24.0000  (    3)   24.0000  




    VOLTAGE SOURCE CURRENTS
    NAME         CURRENT


    TOTAL POWER DISSIPATION   0.00E+00  WATTS


**** 01/30/23 18:24:21 ******* PSpice 17.4.0 (Nov 2018) ******* ID# 0 ********

 *********** LAB_2**************I


 ****     TRANSIENT ANALYSIS               TEMPERATURE =   27.000 DEG C


******************************************************************************



  TIME        V(Is)       
(*)----------   -8.0000E+01  -6.0000E+01  -4.0000E+01  -2.0000E+01   0.0000E+00
                       _ _ _ _ _ _ _ _ _ _ _ _ _ _ _ _ _ _ _ _ _ _ _ _ _ _ _
  0.000E+00 -4.800E+01 .            .       *    .            .            .
  1.000E-03 -4.800E+01 .            .       *    .            .            .
  2.000E-03 -4.800E+01 .            .       *    .            .            .
  3.000E-03 -4.800E+01 .            .       *    .            .            .
  4.000E-03 -4.800E+01 .            .       *    .            .            .
  5.000E-03 -4.800E+01 .            .       *    .            .            .
                       - - - - - - - - - - - - - - - - - - - - - - - - - - - 




          JOB CONCLUDED

**** 01/30/23 18:24:21 ******* PSpice 17.4.0 (Nov 2018) ******* ID# 0 ********

 *********** LAB_2**************I


 ****     JOB STATISTICS SUMMARY


******************************************************************************



  License check-out time            =        1.58
  Total job time (using Solver 1)   =        0.00
