
**** 01/30/23 18:07:23 ******* PSpice 17.4.0 (Nov 2018) ******* ID# 0 ********

 *********** LAB_2**************


 ****     CIRCUIT DESCRIPTION


******************************************************************************



R0  0 1 12kohm
R1  0 2  12Kohms
R2  1 0 12Kohms
R3  0 2 12kohms
R4  1 2 12kohms
Is 0 1  4ma



.TRAN 1m 5m
.PLOT  TRAN V(Is)
.PROBE
.END

**** 01/30/23 18:07:23 ******* PSpice 17.4.0 (Nov 2018) ******* ID# 0 ********

 *********** LAB_2**************


 ****     INITIAL TRANSIENT SOLUTION       TEMPERATURE =   27.000 DEG C


******************************************************************************



 NODE   VOLTAGE     NODE   VOLTAGE     NODE   VOLTAGE     NODE   VOLTAGE


(    1)   18.0000  (    2)    6.0000  




    VOLTAGE SOURCE CURRENTS
    NAME         CURRENT


    TOTAL POWER DISSIPATION   0.00E+00  WATTS


**** 01/30/23 18:07:23 ******* PSpice 17.4.0 (Nov 2018) ******* ID# 0 ********

 *********** LAB_2**************


 ****     TRANSIENT ANALYSIS               TEMPERATURE =   27.000 DEG C


******************************************************************************



  TIME        V(Is)       
(*)----------   -3.0000E+01  -2.0000E+01  -1.0000E+01   0.0000E+00   1.0000E+01
                       _ _ _ _ _ _ _ _ _ _ _ _ _ _ _ _ _ _ _ _ _ _ _ _ _ _ _
  0.000E+00 -1.800E+01 .            .  *         .            .            .
  1.000E-03 -1.800E+01 .            .  *         .            .            .
  2.000E-03 -1.800E+01 .            .  *         .            .            .
  3.000E-03 -1.800E+01 .            .  *         .            .            .
  4.000E-03 -1.800E+01 .            .  *         .            .            .
  5.000E-03 -1.800E+01 .            .  *         .            .            .
                       - - - - - - - - - - - - - - - - - - - - - - - - - - - 




          JOB CONCLUDED

**** 01/30/23 18:07:23 ******* PSpice 17.4.0 (Nov 2018) ******* ID# 0 ********

 *********** LAB_2**************


 ****     JOB STATISTICS SUMMARY


******************************************************************************



  License check-out time            =        1.52
  Total job time (using Solver 1)   =         .02
