
**** 08/31/22 11:40:03 ******* PSpice 17.4.0 (Nov 2018) ******* ID# 0 ********

 *****test*****


 ****     CIRCUIT DESCRIPTION


******************************************************************************



Vs 1 0 DC 0.9mA
R1 1 2 60K
R2 2 0 40K
R3 2 0 80k

.Tran 1ms 5ms
.PLOT TRAN V(1) V(2)
.PROBE
.END

**** 08/31/22 11:40:03 ******* PSpice 17.4.0 (Nov 2018) ******* ID# 0 ********

 *****test*****


 ****     INITIAL TRANSIENT SOLUTION       TEMPERATURE =   27.000 DEG C


******************************************************************************



 NODE   VOLTAGE     NODE   VOLTAGE     NODE   VOLTAGE     NODE   VOLTAGE


(    1) 900.0E-06  (    2) 276.9E-06  




    VOLTAGE SOURCE CURRENTS
    NAME         CURRENT

    Vs          -1.038E-08

    TOTAL POWER DISSIPATION   9.35E-12  WATTS


**** 08/31/22 11:40:03 ******* PSpice 17.4.0 (Nov 2018) ******* ID# 0 ********

 *****test*****


 ****     TRANSIENT ANALYSIS               TEMPERATURE =   27.000 DEG C


******************************************************************************



 LEGEND:

*: V(1)
+: V(2)

  TIME        V(1)        
(*)----------    0.0000E+00   5.0000E-04   1.0000E-03   1.5000E-03   2.0000E-03
(+)----------    1.0000E-04   2.0000E-04   3.0000E-04   4.0000E-04   5.0000E-04
                       _ _ _ _ _ _ _ _ _ _ _ _ _ _ _ _ _ _ _ _ _ _ _ _ _ _ _
  0.000E+00  9.000E-04 .            .         X  .            .            .
  1.000E-03  9.000E-04 .            .         X  .            .            .
  2.000E-03  9.000E-04 .            .         X  .            .            .
  3.000E-03  9.000E-04 .            .         X  .            .            .
  4.000E-03  9.000E-04 .            .         X  .            .            .
  5.000E-03  9.000E-04 .            .         X  .            .            .
                       - - - - - - - - - - - - - - - - - - - - - - - - - - - 




          JOB CONCLUDED

**** 08/31/22 11:40:03 ******* PSpice 17.4.0 (Nov 2018) ******* ID# 0 ********

 *****test*****


 ****     JOB STATISTICS SUMMARY


******************************************************************************



  License check-out time            =         .67
  Total job time (using Solver 1)   =         .02
